EC-Lab ASCII FILE
Nb header lines : 68                          

Galvano Electrochemical Impedance Spectroscopy

Run on channel : 1 (SN 66181)
User : 
CE vs. WE compliance from -10 V to 10 V
Electrode connection : standard
Potential control : Ewe
Ewe ctrl range : min = -10.00 V, max = 10.00 V
Safety Limits :
	Do not start on E overload
Acquisition started on : 10/21/2024 15:48:27.372
Technique started on : 10/21/2024 15:50:53.754
Loaded Setting File :  NONE
Saved on :
	File : 3-12-002_BoL-02_03_GEIS_C01.mpr
	Directory : C:\Users\patri\OneDrive\Desktop\Electrolysis Data\October_21_2024-3-12-02\Pstat\
	Host : 10.0.109.145
Device : SP-50e (SN .003546)
Address : USB
EC-Lab for windows v11.43 (software)
Internet server v11.40 (firmware)
Command interpretor v11.40 (firmware)
Electrode material : 
Initial state : 
Electrolyte : 
Comments : 
Electrode surface area : 4.000 cm²
Characteristic mass : 0.001 g
Volume (V) : 0.001 cm³
Thickness (t) : 0.000 cm
Diameter (d) : 0.000 cm
Cell constant (k=t/A) : 0.000 cm-1
Cycle Definition : Charge/Discharge alternance
Mode                Single sine         
Is                  -500.000            
unit Is             mA                  
vs.                 <None>              
tIs (h:m:s)         0:00:0.0000         
record              0                   
dE (mV)             0.000               
dt (s)              0.000               
fi                  1.000               
unit fi             MHz                 
ff                  100.000             
unit ff             mHz                 
Nd                  10                  
Points              per decade          
spacing             Logarithmic         
Ia/Va               Ia                  
Ia                  250.000             
unit  Ia            mA                  
va pourcent         0.10                
pw                  0.10                
Na                  2                   
corr                0                   
E range min (V)     -10.000             
E range max (V)     10.000              
I Range             1 A                 
Bandwidth           5                   
nc cycles           0                   
goto Ns'            0                   
nr cycles           0                   
inc. cycle          0                   

freq/Hz	Re(Z)/Ohm	-Im(Z)/Ohm	|Z|/Ohm	Phase(Z)/deg	time/s	<Ewe>/V	<I>/mA	Cs/µF	Cp/µF	cycle number	|Ewe|/V	|I|/A	Ns	I Range	(Q-Qo)/mA.h	Re(Y)/Ohm-1	Im(Y)/Ohm-1	|Y|/Ohm-1	Phase(Y)/deg	Re(C)/nF	Im(C)/nF	|C|/nF	Phase(C)/deg	Re(M)	Im(M)	|M|	Phase(M)/deg	Re(Permittivity)	Im(Permittivity)	|Permittivity|	Phase(Permittivity)/deg	Re(Resistivity)/Ohm.cm	Im(Resistivity)/Ohm.cm	|Resistivity|/Ohm.cm	Phase(Resistivity)/deg	Re(Conductivity)/mS/cm	Im(Conductivity)/mS/cm	|Conductivity|/mS/cm	Phase(Conductivity)/deg	Tan(Delta)	Loss Angle(Delta)/deg	dq/mA.h	
1.0000186E+006	4.4141820E-001	1.5181488E-001	4.6679524E-001	-1.8979387E+001	1.463823965415213E+002	-3.3499222E+000	-5.0027896E+002	1.0483294E+000	1.1088520E-001	1.000000000000000E+000	7.3324729E-005	1.5708114E-004	0	9	-4.542444371449451E-001	2.0258040E+000	6.9672513E-001	2.1422670E+000	1.8979387E+001	1.1088518E+002	3.2241074E+002	3.4094604E+002	-7.1020615E+001	0.0000000E+000	0.0000000E+000	0.0000000E+000	7.1020615E+001	0.0000000E+000	0.0000000E+000	0.0000000E+000	-7.1020615E+001	0.0000000E+000	0.0000000E+000	0.0000000E+000	-1.8979387E+001	0.0000000E+000	0.0000000E+000	0.0000000E+000	1.8979387E+001	2.9076083E+000	1.8979387E+001	-4.542444371449451E-001
7.9167906E+005	3.0737409E-001	1.5783852E-001	3.4553123E-001	-2.7180782E+001	1.494403966867685E+002	-3.3508215E+000	-5.0032898E+002	1.2736731E+000	2.6577207E-001	1.000000000000000E+000	1.0573369E-004	3.0600329E-004	0	9	-8.785757611774703E-001	2.5744987E+000	1.3220211E+000	2.8940945E+000	2.7180782E+001	2.6577206E+002	5.1756342E+002	5.8181329E+002	-6.2819218E+001	0.0000000E+000	0.0000000E+000	0.0000000E+000	6.2819218E+001	0.0000000E+000	0.0000000E+000	0.0000000E+000	-6.2819218E+001	0.0000000E+000	0.0000000E+000	0.0000000E+000	-2.7180782E+001	0.0000000E+000	0.0000000E+000	0.0000000E+000	2.7180782E+001	1.9473959E+000	2.7180782E+001	-4.243313240325252E-001
6.2676294E+005	0.0000000E+000	0.0000000E+000	0.0000000E+000	0.0000000E+000	1.495893966938456E+002	-3.3480108E+000	-5.0022531E+002	0.0000000E+000	0.0000000E+000	1.000000000000000E+000	0.0000000E+000	0.0000000E+000	0	9	-8.988357690822117E-001	0.0000000E+000	0.0000000E+000	0.0000000E+000	0.0000000E+000	0.0000000E+000	0.0000000E+000	0.0000000E+000	-9.0000000E+001	0.0000000E+000	0.0000000E+000	0.0000000E+000	9.0000000E+001	0.0000000E+000	0.0000000E+000	0.0000000E+000	-9.0000000E+001	0.0000000E+000	0.0000000E+000	0.0000000E+000	0.0000000E+000	0.0000000E+000	0.0000000E+000	0.0000000E+000	0.0000000E+000	0.0000000E+000	0.0000000E+000	-2.026000790474147E-002
4.9619581E+005	3.2095757E-001	8.2300857E-002	3.3134151E-001	-1.4382071E+001	1.526463968390453E+002	-3.3466659E+000	-5.0014026E+002	3.8972895E+000	2.4044719E-001	1.000000000000000E+000	4.4529801E-004	1.3439247E-003	0	9	-1.322959940573126E+000	2.9234519E+000	7.4963987E-001	3.0180342E+000	1.4382071E+001	2.4044717E+002	9.3769788E+002	9.6803522E+002	-7.5617928E+001	0.0000000E+000	0.0000000E+000	0.0000000E+000	7.5617928E+001	0.0000000E+000	0.0000000E+000	0.0000000E+000	-7.5617928E+001	0.0000000E+000	0.0000000E+000	0.0000000E+000	-1.4382071E+001	0.0000000E+000	0.0000000E+000	0.0000000E+000	1.4382071E+001	3.8998084E+000	1.4382071E+001	-4.241241714909143E-001
3.9282400E+005	3.4204623E-001	6.7383565E-002	3.4862038E-001	-1.1144635E+001	1.557043969842925E+002	-3.3491340E+000	-5.0009521E+002	6.0126805E+000	2.2463144E-001	1.000000000000000E+000	1.6007649E-003	4.5917137E-003	0	9	-1.747121656671385E+000	2.8143575E+000	5.5443221E-001	2.8684497E+000	1.1144635E+001	2.2463152E+002	1.1402534E+003	1.1621692E+003	-7.8855362E+001	0.0000000E+000	0.0000000E+000	0.0000000E+000	7.8855362E+001	0.0000000E+000	0.0000000E+000	0.0000000E+000	-7.8855362E+001	0.0000000E+000	0.0000000E+000	0.0000000E+000	-1.1144635E+001	0.0000000E+000	0.0000000E+000	0.0000000E+000	1.1144635E+001	5.0761075E+000	1.1144635E+001	-4.241617160982589E-001
3.1099688E+005	3.4330943E-001	5.9582762E-002	3.4844148E-001	-9.8458443E+000	1.587623971295398E+002	-3.3492594E+000	-5.0015768E+002	8.5890169E+000	2.5114530E-001	1.000000000000000E+000	3.7803249E-003	1.0849239E-002	0	9	-2.171294879379964E+000	2.8276525E+000	4.9075070E-001	2.8699224E+000	9.8458443E+000	2.5114519E+002	1.4470719E+003	1.4687039E+003	-8.0154160E+001	0.0000000E+000	0.0000000E+000	0.0000000E+000	8.0154160E+001	0.0000000E+000	0.0000000E+000	0.0000000E+000	-8.0154160E+001	0.0000000E+000	0.0000000E+000	0.0000000E+000	-9.8458443E+000	0.0000000E+000	0.0000000E+000	0.0000000E+000	9.8458443E+000	5.7618918E+000	9.8458443E+000	-4.241732227085795E-001
2.4620509E+005	3.4363356E-001	6.2561393E-002	3.4928206E-001	-1.0318172E+001	1.618203972747870E+002	-3.3468523E+000	-5.0021185E+002	1.0332768E+001	3.3149499E-001	1.000000000000000E+000	7.8520523E-003	2.2480549E-002	0	9	-2.595513031188925E+000	2.8167157E+000	5.1280689E-001	2.8630157E+000	1.0318172E+001	3.3149490E+002	1.8208164E+003	1.8507461E+003	-7.9681831E+001	0.0000000E+000	0.0000000E+000	0.0000000E+000	7.9681831E+001	0.0000000E+000	0.0000000E+000	0.0000000E+000	-7.9681831E+001	0.0000000E+000	0.0000000E+000	0.0000000E+000	-1.0318172E+001	0.0000000E+000	0.0000000E+000	0.0000000E+000	1.0318172E+001	5.4927416E+000	1.0318172E+001	-4.242181518089607E-001
1.9492280E+005	3.4779707E-001	7.0094742E-002	3.5479018E-001	-1.1394705E+001	1.648783974200342E+002	-3.3447173E+000	-5.0020856E+002	1.1648555E+001	4.5467365E-001	1.000000000000000E+000	1.5936241E-002	4.4917367E-002	0	9	-3.019835459389031E+000	2.7630117E+000	5.5685514E-001	2.8185673E+000	1.1394705E+001	4.5467371E+002	2.2560059E+003	2.3013672E+003	-7.8605293E+001	0.0000000E+000	0.0000000E+000	0.0000000E+000	7.8605293E+001	0.0000000E+000	0.0000000E+000	0.0000000E+000	-7.8605293E+001	0.0000000E+000	0.0000000E+000	0.0000000E+000	-1.1394705E+001	0.0000000E+000	0.0000000E+000	0.0000000E+000	1.1394705E+001	4.9618139E+000	1.1394705E+001	-4.243224282001057E-001
1.5431080E+005	3.5444844E-001	8.0972821E-002	3.6357984E-001	-1.2868247E+001	1.679363975652814E+002	-3.3454621E+000	-5.0026019E+002	1.2737511E+001	6.3177657E-001	1.000000000000000E+000	3.0906025E-002	8.5004784E-002	0	9	-3.444180891155541E+000	2.6813498E+000	6.1254734E-001	2.7504275E+000	1.2868247E+001	6.3177655E+002	2.7655232E+003	2.8367693E+003	-7.7131752E+001	0.0000000E+000	0.0000000E+000	0.0000000E+000	7.7131752E+001	0.0000000E+000	0.0000000E+000	0.0000000E+000	-7.7131752E+001	0.0000000E+000	0.0000000E+000	0.0000000E+000	-1.2868247E+001	0.0000000E+000	0.0000000E+000	0.0000000E+000	1.2868247E+001	4.3773756E+000	1.2868247E+001	-4.243454317665103E-001
1.2217006E+005	3.6765015E-001	9.1415882E-002	3.7884495E-001	-1.3963373E+001	1.709943977105286E+002	-3.3478189E+000	-5.0020099E+002	1.4250617E+001	8.2976288E-001	1.000000000000000E+000	5.1555809E-002	1.3608684E-001	0	9	-3.868453379209777E+000	2.5616026E+000	6.3694024E-001	2.6396024E+000	1.3963373E+001	8.2976276E+002	3.3370837E+003	3.4386965E+003	-7.6036629E+001	0.0000000E+000	0.0000000E+000	0.0000000E+000	7.6036629E+001	0.0000000E+000	0.0000000E+000	0.0000000E+000	-7.6036629E+001	0.0000000E+000	0.0000000E+000	0.0000000E+000	-1.3963373E+001	0.0000000E+000	0.0000000E+000	0.0000000E+000	1.3963373E+001	4.0217319E+000	1.3963373E+001	-4.242724880542355E-001
9.6719125E+004	3.8232976E-001	1.0080605E-001	3.9539587E-001	-1.4770603E+001	1.740523978557758E+002	-3.3468039E+000	-5.0020929E+002	1.6323797E+001	1.0610360E+000	1.000000000000000E+000	7.1595713E-002	1.8107350E-001	0	9	-4.291762989155690E+000	2.4455347E+000	6.4479601E-001	2.5291109E+000	1.4770603E+001	1.0610356E+003	4.0242190E+003	4.1617466E+003	-7.5229401E+001	0.0000000E+000	0.0000000E+000	0.0000000E+000	7.5229401E+001	0.0000000E+000	0.0000000E+000	0.0000000E+000	-7.5229401E+001	0.0000000E+000	0.0000000E+000	0.0000000E+000	-1.4770603E+001	0.0000000E+000	0.0000000E+000	0.0000000E+000	1.4770603E+001	3.7927263E+000	1.4770603E+001	-4.233096099459135E-001
7.6566211E+004	4.0280664E-001	1.0854949E-001	4.1717643E-001	-1.5081956E+001	1.771103980010230E+002	-3.3464975E+000	-4.9978043E+002	1.9149401E+001	1.2964962E+000	1.000000000000000E+000	9.1371268E-002	2.1902308E-001	0	9	-4.716463780188812E+000	2.3144994E+000	6.2371796E-001	2.3970673E+000	1.5081956E+001	1.2964961E+003	4.8110522E+003	4.9826826E+003	-7.4918045E+001	0.0000000E+000	0.0000000E+000	0.0000000E+000	7.4918045E+001	0.0000000E+000	0.0000000E+000	0.0000000E+000	-7.4918045E+001	0.0000000E+000	0.0000000E+000	0.0000000E+000	-1.5081956E+001	0.0000000E+000	0.0000000E+000	0.0000000E+000	1.5081956E+001	3.7108109E+000	1.5081956E+001	-4.247007910331222E-001
6.0616465E+004	4.2494068E-001	1.1323852E-001	4.3976986E-001	-1.4921474E+001	1.773943980145123E+002	-3.3469107E+000	-5.0022830E+002	2.3186508E+001	1.5373502E+000	1.000000000000000E+000	1.1257037E-001	2.5597563E-001	0	9	-4.755468781014589E+000	2.1972394E+000	5.8552212E-001	2.2739167E+000	1.4921474E+001	1.5373499E+003	5.7690845E+003	5.9704087E+003	-7.5078529E+001	0.0000000E+000	0.0000000E+000	0.0000000E+000	7.5078529E+001	0.0000000E+000	0.0000000E+000	0.0000000E+000	-7.5078529E+001	0.0000000E+000	0.0000000E+000	0.0000000E+000	-1.4921474E+001	0.0000000E+000	0.0000000E+000	0.0000000E+000	1.4921474E+001	3.7526159E+000	1.4921474E+001	-3.900500082577629E-002
4.7988422E+004	4.4851241E-001	1.1387751E-001	4.6274340E-001	-1.4246385E+001	1.778243980349362E+002	-3.3463488E+000	-5.0019659E+002	2.9123642E+001	1.7637668E+000	1.000000000000000E+000	1.1967812E-001	2.5862738E-001	0	9	-4.814527969816367E+000	2.0945656E+000	5.3181118E-001	2.1610248E+000	1.4246385E+001	1.7637667E+003	6.9466860E+003	7.1670996E+003	-7.5753616E+001	0.0000000E+000	0.0000000E+000	0.0000000E+000	7.5753616E+001	0.0000000E+000	0.0000000E+000	0.0000000E+000	-7.5753616E+001	0.0000000E+000	0.0000000E+000	0.0000000E+000	-1.4246385E+001	0.0000000E+000	0.0000000E+000	0.0000000E+000	1.4246385E+001	3.9385512E+000	1.4246385E+001	-5.905918880177818E-002
3.8014027E+004	4.7472304E-001	1.1750808E-001	4.8905021E-001	-1.3902958E+001	1.782543980553601E+002	-3.3420379E+000	-4.9405902E+002	3.5629402E+001	2.0570133E+000	1.000000000000000E+000	1.2621053E-001	2.5807273E-001	0	9	-4.874472419698582E+000	1.9848760E+000	4.9131590E-001	2.0447798E+000	1.3902958E+001	2.0570125E+003	8.3101650E+003	8.5609658E+003	-7.6097046E+001	0.0000000E+000	0.0000000E+000	0.0000000E+000	7.6097046E+001	0.0000000E+000	0.0000000E+000	0.0000000E+000	-7.6097046E+001	0.0000000E+000	0.0000000E+000	0.0000000E+000	-1.3902958E+001	0.0000000E+000	0.0000000E+000	0.0000000E+000	1.3902958E+001	4.0399179E+000	1.3902958E+001	-5.994444988221570E-002
3.0080912E+004	4.9126863E-001	1.0284254E-001	5.0191778E-001	-1.1823597E+001	1.786843980757840E+002	-3.3458431E+000	-5.0015118E+002	5.1446564E+001	2.1599157E+000	1.000000000000000E+000	1.2987757E-001	2.5876263E-001	0	9	-4.933603612652911E+000	1.9500865E+000	4.0823254E-001	1.9923582E+000	1.1823597E+001	2.1599150E+003	1.0317703E+004	1.0541358E+004	-7.8176407E+001	0.0000000E+000	0.0000000E+000	0.0000000E+000	7.8176407E+001	0.0000000E+000	0.0000000E+000	0.0000000E+000	-7.8176407E+001	0.0000000E+000	0.0000000E+000	0.0000000E+000	-1.1823597E+001	0.0000000E+000	0.0000000E+000	0.0000000E+000	1.1823597E+001	4.7769012E+000	1.1823597E+001	-5.913119295432878E-002
2.3808643E+004	5.0827348E-001	9.3360595E-002	5.1677668E-001	-1.0408174E+001	1.791143980962079E+002	-3.3457916E+000	-5.0016531E+002	7.1601463E+001	2.3369172E+000	1.000000000000000E+000	1.3254710E-001	2.5648814E-001	0	9	-4.992774328425321E+000	1.9032316E+000	3.4958902E-001	1.9350718E+000	1.0408174E+001	2.3369167E+003	1.2722638E+004	1.2935481E+004	-7.9591827E+001	0.0000000E+000	0.0000000E+000	0.0000000E+000	7.9591827E+001	0.0000000E+000	0.0000000E+000	0.0000000E+000	-7.9591827E+001	0.0000000E+000	0.0000000E+000	0.0000000E+000	-1.0408174E+001	0.0000000E+000	0.0000000E+000	0.0000000E+000	1.0408174E+001	5.4441972E+000	1.0408174E+001	-5.917071577241018E-002
1.8853918E+004	5.2224505E-001	8.3386272E-002	5.2886027E-001	-9.0717764E+000	1.793983981096972E+002	-3.3429458E+000	-5.0016064E+002	1.0123344E+002	2.5166984E+000	1.000000000000000E+000	1.4497034E-001	2.7411842E-001	0	9	-5.031834689088364E+000	1.8672071E+000	2.9813480E-001	1.8908587E+000	9.0717764E+000	2.5166987E+003	1.5761988E+004	1.5961643E+004	-8.0928223E+001	0.0000000E+000	0.0000000E+000	0.0000000E+000	8.0928223E+001	0.0000000E+000	0.0000000E+000	0.0000000E+000	-8.0928223E+001	0.0000000E+000	0.0000000E+000	0.0000000E+000	-9.0717764E+000	0.0000000E+000	0.0000000E+000	0.0000000E+000	9.0717764E+000	6.2629619E+000	9.0717764E+000	-3.906036066304264E-002
1.4929112E+004	5.3316641E-001	7.3596321E-002	5.3822190E-001	-7.8592324E+000	1.798283981301211E+002	-3.3426626E+000	-5.0016553E+002	1.4485385E+002	2.7084417E+000	1.000000000000000E+000	1.3866523E-001	2.5763580E-001	0	9	-5.091028807701680E+000	1.8405179E+000	2.5405830E-001	1.8579698E+000	7.8592324E+000	2.7084412E+003	1.9621229E+004	1.9807277E+004	-8.2140770E+001	0.0000000E+000	0.0000000E+000	0.0000000E+000	8.2140770E+001	0.0000000E+000	0.0000000E+000	0.0000000E+000	-8.2140770E+001	0.0000000E+000	0.0000000E+000	0.0000000E+000	-7.8592324E+000	0.0000000E+000	0.0000000E+000	0.0000000E+000	7.8592324E+000	7.2444711E+000	7.8592324E+000	-5.919411861331625E-002
1.1811533E+004	5.4179573E-001	6.5059423E-002	5.4568797E-001	-6.8473535E+000	1.801123981436103E+002	-3.3439102E+000	-5.0016125E+002	2.0711122E+002	2.9439828E+000	1.000000000000000E+000	1.4564927E-001	2.6690945E-001	0	9	-5.130125047541645E+000	1.8194780E+000	2.1848491E-001	1.8325491E+000	6.8473535E+000	2.9439822E+003	2.4516627E+004	2.4692752E+004	-8.3152649E+001	0.0000000E+000	0.0000000E+000	0.0000000E+000	8.3152649E+001	0.0000000E+000	0.0000000E+000	0.0000000E+000	-8.3152649E+001	0.0000000E+000	0.0000000E+000	0.0000000E+000	-6.8473535E+000	0.0000000E+000	0.0000000E+000	0.0000000E+000	6.8473535E+000	8.3277054E+000	6.8473535E+000	-3.909623983996458E-002
9.3513262E+003	5.4870856E-001	5.8111981E-002	5.5177718E-001	-6.0454788E+000	1.804003981572896E+002	-3.3456807E+000	-5.0014343E+002	2.9287430E+002	3.2485170E+000	1.000000000000000E+000	1.5086760E-001	2.7342123E-001	0	9	-5.169947024315384E+000	1.8022467E+000	1.9087023E-001	1.8123257E+000	6.0454788E+000	3.2485168E+003	3.0673346E+004	3.0844887E+004	-8.3954521E+001	0.0000000E+000	0.0000000E+000	0.0000000E+000	8.3954521E+001	0.0000000E+000	0.0000000E+000	0.0000000E+000	-8.3954521E+001	0.0000000E+000	0.0000000E+000	0.0000000E+000	-6.0454788E+000	0.0000000E+000	0.0000000E+000	0.0000000E+000	6.0454788E+000	9.4422626E+000	6.0454788E+000	-3.982197677373911E-002
7.4089038E+003	5.5513573E-001	5.2350506E-002	5.5759865E-001	-5.3871851E+000	1.809143981817033E+002	-3.3459823E+000	-5.0008359E+002	4.1034134E+002	3.6169593E+000	1.000000000000000E+000	1.4252569E-001	2.5560623E-001	0	9	-5.240485636762420E+000	1.7854831E+000	1.6837494E-001	1.7934046E+000	5.3871851E+000	3.6169587E+003	3.8354992E+004	3.8525160E+004	-8.4612816E+001	0.0000000E+000	0.0000000E+000	0.0000000E+000	8.4612816E+001	0.0000000E+000	0.0000000E+000	0.0000000E+000	-8.4612816E+001	0.0000000E+000	0.0000000E+000	0.0000000E+000	-5.3871851E+000	0.0000000E+000	0.0000000E+000	0.0000000E+000	5.3871851E+000	1.0604209E+001	5.3871851E+000	-7.053861244703619E-002
5.8650859E+003	5.5992877E-001	4.7319539E-002	5.6192470E-001	-4.8305840E+000	1.813253982012247E+002	-3.3461449E+000	-5.0008890E+002	5.7346277E+002	4.0665865E+000	1.000000000000000E+000	1.4536549E-001	2.5869212E-001	0	9	-5.296940045522279E+000	1.7732768E+000	1.4985949E-001	1.7795979E+000	4.8305840E+000	4.0665842E+003	4.8119629E+004	4.8291156E+004	-8.5169418E+001	0.0000000E+000	0.0000000E+000	0.0000000E+000	8.5169418E+001	0.0000000E+000	0.0000000E+000	0.0000000E+000	-8.5169418E+001	0.0000000E+000	0.0000000E+000	0.0000000E+000	-4.8305840E+000	0.0000000E+000	0.0000000E+000	0.0000000E+000	4.8305840E+000	1.1832930E+001	4.8305840E+000	-5.645440875985930E-002
4.6414854E+003	5.6330383E-001	4.4123337E-002	5.6502926E-001	-4.4788079E+000	1.817853982230736E+002	-3.3458502E+000	-5.0006845E+002	7.7713202E+002	4.7390318E+000	1.000000000000000E+000	1.4753729E-001	2.6111442E-001	0	9	-5.360277061530445E+000	1.7644154E+000	1.3820587E-001	1.7698199E+000	4.4788079E+000	4.7390298E+003	6.0501199E+004	6.0686520E+004	-8.5521194E+001	0.0000000E+000	0.0000000E+000	0.0000000E+000	8.5521194E+001	0.0000000E+000	0.0000000E+000	0.0000000E+000	-8.5521194E+001	0.0000000E+000	0.0000000E+000	0.0000000E+000	-4.4788079E+000	0.0000000E+000	0.0000000E+000	0.0000000E+000	4.4788079E+000	1.2766574E+001	4.4788079E+000	-6.333701600816521E-002
3.6761763E+003	5.6759262E-001	4.4509549E-002	5.6933510E-001	-4.4838519E+000	1.822463982449699E+002	-3.3460643E+000	-5.0006607E+002	9.7268134E+002	5.9448519E+000	1.000000000000000E+000	1.4976950E-001	2.6306036E-001	0	9	-5.423849039161457E+000	1.7510591E+000	1.3731478E-001	1.7564348E+000	4.4838519E+000	5.9448477E+003	7.5809664E+004	7.6042398E+004	-8.5516151E+001	0.0000000E+000	0.0000000E+000	0.0000000E+000	8.5516151E+001	0.0000000E+000	0.0000000E+000	0.0000000E+000	-8.5516151E+001	0.0000000E+000	0.0000000E+000	0.0000000E+000	-4.4838519E+000	0.0000000E+000	0.0000000E+000	0.0000000E+000	4.4838519E+000	1.2752154E+001	4.4838519E+000	-6.357197763101219E-002
2.9109316E+003	5.7225317E-001	4.4970050E-002	5.7401741E-001	-4.4933081E+000	1.827073982668662E+002	-3.3447495E+000	-5.0006641E+002	1.2158073E+003	7.4621048E+000	1.000000000000000E+000	1.5158854E-001	2.6408353E-001	0	9	-5.487150233123686E+000	1.7367531E+000	1.3648133E-001	1.7421075E+000	4.4933081E+000	7.4621069E+003	9.4956828E+004	9.5249578E+004	-8.5506691E+001	0.0000000E+000	0.0000000E+000	0.0000000E+000	8.5506691E+001	0.0000000E+000	0.0000000E+000	0.0000000E+000	-8.5506691E+001	0.0000000E+000	0.0000000E+000	0.0000000E+000	-4.4933081E+000	0.0000000E+000	0.0000000E+000	0.0000000E+000	4.4933081E+000	1.2725206E+001	4.4933081E+000	-6.330119396222944E-002
